 ****** HSPICE -- A-2008.03 64-BIT (Feb 26 2008) linux ******                   
  Copyright (C) 2008 Synopsys, Inc. All Rights Reserved.                        
  Unpublished-rights reserved under US copyright laws.
  This program is protected by law and is subject to the 
  terms and conditions of the license agreement found in:
    /license.warn
  Use of this program is your acceptance to be bound by this 
  license agreement. HSPICE is the trademark of Synopsys, Inc.
  Input File: 2Stage/PMOS_CS/PMOS_CS.sp                                         
 lic: No 'setenv LM_LICENSE_FILE' in current environment' 
 lic:  
 lic: FLEXlm: v8.5b 
 lic: USER:   linyibo              HOSTNAME: eda-server.localdomain 
 lic: HOSTID: 002219a9250f         PID:      2302 
 lic: Using FLEXlm license file: 
 lic: /usr/local/flexlm/licenses/license.dat 
 lic: Checkout 1 hspice 
 lic: License/Maintenance for hspice will expire on 31-dec-2020/2007.9 
 lic: NODE LOCKED license on hostid 002219a9250f 
 lic:   

 vdd vdd 0 dc 1.8 ac 0 
 vcm vcm 0 dc 0.7 ac 0
 vin1 in1 vcm ac 1
 vin2 in2 vcm ac 0
 ibias iin 0 dc 10u

 **amplifier
 **first stage
 m1 y in1 tail vdd pch l=0.5u w=20u
 m2 x in2 tail vdd pch l=0.5u w=20u
 m3 y x 0 0 nch l=0.5u w=5u
 m4 x x 0 0 nch l=0.5u w=5u
 m5 tail iin vdd vdd pch l=0.5u w=48u

 **second stage
 m6 out y 0 0 nch l=0.5u w=30u
 m7 out iin vdd vdd pch l=0.5u w=144u

 **bias
 m8 iin iin vdd vdd pch l=0.5u w=3u

 **compensation
 rz y z 1.75k
 cc z out 350f

 **load
 cl out 0 2p

 .options list post=2

 .op
 .ac dec 10 1 1g
 .print ac vm(out) vp(out)
 .print ac vm(y) vp(y)

 .end
 scientific notation:
 a=10**-18  f=10**-15  p=10**-12  n=10**-9  u=10**-6
 m=10**-3   k=10**3    x=10**6    g=10**9 


 circuit parameter definitions
  parameter          =  value 





 constants  - tnom         kt           vt           gapsi        ni
            298.1500     4.116e-21     25.6918m      1.1156     1.256e+16  
 

1****** HSPICE -- A-2008.03 64-BIT (Feb 26 2008) linux ******                   
 ******  
 **pmos input stage cs output stage amplifier                                   
  ******  circuit element summary          tnom=  25.000 temp=  25.000          
 ******  


 **** resistors

  
 
                             
 element name        0:rz    
 node1               0:y     
 node2               0:z     
 model                       
 res eff             1.7500k 
 tc1                 0.      
 tc2                 0.      
 scale               1.0000  
 m                   1.0000  
 ac                  1.7500k 
 temp               25.0000  
 l                   0.      
 w                   0.      
 cap                 0.      
 noise               1.0000  


 **** capacitors
  
 
                                        
 element name        0:cc       0:cl    
 node1               0:z        0:out   
 node2               0:out      0:0     
 model                                  
 cap eff           350.0000f    2.0000p 
 tc1                 0.         0.      
 tc2                 0.         0.      
 scale               1.0000     1.0000  
 ic                  0.         0.      
 m                   1.0000     1.0000  
 w                   0.         0.      
 l                   0.         0.      
 temp               25.0000    25.0000  


 **** independent sources

     name         node1        node2      dc volt    ac mag    ac phase    type
        0:vdd       0:vdd                    0:0                   1.8000     0.         0.      dc   
        0:vcm       0:vcm                    0:0                 700.0000m    0.         0.      dc   
        0:vin1       0:in1                    0:vcm                 0.         1.0000     0.      dc   
        0:vin2       0:in2                    0:vcm                 0.         0.         0.      dc   
        0:ibias       0:iin                    0:0                  10.0000u    0.         0.      dc   


 **** mosfets


 **** BSIM3v3 Model (Level49 or Level53)
  
 
                                                              
 element name        0:m1       0:m2       0:m3       0:m4    
 drain               0:y        0:x        0:y        0:x     
 gate                0:in1      0:in2      0:x        0:x     
 source              0:tail     0:tail     0:0        0:0     
 bulk                0:vdd      0:vdd      0:0        0:0     
 model               0:pch.3    0:pch.3    0:nch.7    0:nch.7 
 w eff              19.9900u   19.9900u    4.9940u    4.9940u 
 l eff             450.0000n  450.0000n  460.0000n  460.0000n 
 rd eff             72.0000m   72.0000m  272.0000m  272.0000m 
 rs eff             72.0000m   72.0000m  272.0000m  272.0000m 
 cdsat              50.9600a   50.9600a   16.3600a   16.3600a 
 cssat              50.9600a   50.9600a   16.3600a   16.3600a 
 capbd              22.5705f   22.5705f    4.8543f    4.8543f 
 capbs              22.5705f   22.5705f    4.8543f    4.8543f 
 temp               25.0000    25.0000    25.0000    25.0000  
 aic                                                          
 nf                  1.0000     1.0000     1.0000     1.0000  
 sa                  0.         0.         0.         0.      
 sb                  0.         0.         0.         0.      
 sd                  0.         0.         0.         0.      
 saeff               0.         0.         0.         0.      
 sbeff               0.         0.         0.         0.      
 mulu0               1.0000     1.0000     1.0000     1.0000  
 mulua               1.0000     1.0000     1.0000     1.0000  
 mulub               1.0000     1.0000     1.0000     1.0000  
  
 
                                                              
 element name        0:m5       0:m6       0:m7       0:m8    
 drain               0:tail     0:out      0:out      0:iin   
 gate                0:iin      0:y        0:iin      0:iin   
 source              0:vdd      0:0        0:vdd      0:vdd   
 bulk                0:vdd      0:0        0:vdd      0:vdd   
 model               0:pch.3    0:nch.3    0:pch.3    0:pch.7 
 w eff              47.9900u   29.9940u  143.9900u    2.9900u 
 l eff             450.0000n  460.0000n  450.0000n  450.0000n 
 rd eff             30.0000m   45.3333m   10.0000m  480.0000m 
 rs eff             30.0000m   45.3333m   10.0000m  480.0000m 
 cdsat             120.9600a   92.3600a  360.9600a    8.4600a 
 cssat             120.9600a   92.3600a  360.9600a    8.4600a 
 capbd              53.8913f   28.3097f  161.2769f    3.5543f 
 capbs              53.8913f   28.3097f  161.2769f    3.5543f 
 temp               25.0000    25.0000    25.0000    25.0000  
 aic                                                          
 nf                  1.0000     1.0000     1.0000     1.0000  
 sa                  0.         0.         0.         0.      
 sb                  0.         0.         0.         0.      
 sd                  0.         0.         0.         0.      
 saeff               0.         0.         0.         0.      
 sbeff               0.         0.         0.         0.      
 mulu0               1.0000     1.0000     1.0000     1.0000  
 mulua               1.0000     1.0000     1.0000     1.0000  
 mulub               1.0000     1.0000     1.0000     1.0000  
  
 
      
1****** HSPICE -- A-2008.03 64-BIT (Feb 26 2008) linux ******                   
 ******  
 **pmos input stage cs output stage amplifier                                   
  ******  operating point information      tnom=  25.000 temp=  25.000          
 ******  
 ***** operating point status is all       simulation time is     0.     
    node    =voltage      node    =voltage      node    =voltage

 +0:iin     =   1.1192  0:in1     = 700.0000m 0:in2     = 700.0000m
 +0:out     =   1.1396  0:tail    =   1.4926  0:vcm     = 700.0000m
 +0:vdd     =   1.8000  0:x       = 671.8037m 0:y       = 671.8037m
 +0:z       = 671.8037m


 ****  voltage sources

 subckt                                              
 element  0:vdd      0:vcm      0:vin1     0:vin2    
  volts      1.8000   700.0000m    0.         0.     
  current -659.0718u    0.         0.         0.     
  power      1.1863m    0.         0.         0.     

     total voltage source power dissipation=    1.1863m       watts



 ***** current sources

 subckt             
 element  0:ibias   
  volts      1.1192 
  current   10.0000u
  power    -11.1917u


     total current source power dissipation= -11.1917u       watts

 **** resistors

 subckt             
 element  0:rz      
  r value    1.7500k
  v drop     0.     
  current    0.     
  power      0.     



 **** mosfets


 subckt                                                                    
 element  0:m1       0:m2       0:m3       0:m4       0:m5       0:m6      
 model    0:pch.3    0:pch.3    0:nch.7    0:nch.7    0:pch.3    0:nch.3   
 region     Saturati   Saturati   Saturati   Saturati   Saturati   Saturati
  id       -78.1865u  -78.1865u   78.1865u   78.1865u -156.3731u  492.6975u
  ibs       50.9597a   50.9597a -1.354e-20 -1.354e-20  2.208e-20 -8.026e-20
  ibd       51.5136a   51.5136a -993.3291a -993.3291a  121.1797a   -1.1537n
  vgs     -792.6310m -792.6310m  671.8037m  671.8037m -680.8279m  671.8037m
  vds     -820.8273m -820.8273m  671.8037m  671.8037m -307.3690m    1.1396 
  vbs      307.3690m  307.3690m    0.         0.         0.         0.     
  vth     -559.8513m -559.8513m  488.7163m  488.7163m -466.5226m  487.5597m
  vdsat   -223.3659m -223.3659m  184.0627m  184.0627m -203.3186m  184.7650m
  vod     -232.7798m -232.7798m  183.0875m  183.0875m -214.3054m  184.2441m
  beta       2.7533m    2.7533m    4.3008m    4.3008m    6.9521m   26.1844m
  gam eff  516.2805m  516.2805m  512.7157m  512.7157m  523.6660m  499.9790m
  gm       570.5845u  570.5845u  669.6469u  669.6469u    1.2150m    4.1734m
  gds        6.1364u    6.1364u    5.9259u    5.9259u   41.3879u   23.6811u
  gmb      168.6158u  168.6158u  185.7349u  185.7349u  403.0586u    1.1513m
  cdtot     22.8875f   22.8875f    5.6786f    5.6786f   65.6602f   31.1500f
  cgtot     74.0284f   74.0284f   18.2003f   18.2003f  178.5867f  109.0442f
  cstot     91.1407f   91.1407f   22.2927f   22.2927f  227.9498f  132.9202f
  cbtot     53.0106f   53.0106f   13.2214f   13.2214f  148.1563f   75.1813f
  cgs       65.0601f   65.0601f   15.2711f   15.2711f  155.0109f   91.8272f
  cgd        6.5523f    6.5523f    1.8320f    1.8320f   16.4861f   10.9795f



 subckt                        
 element  0:m7       0:m8      
 model    0:pch.3    0:pch.7   
 region     Saturati   Saturati
  id      -492.6987u  -10.0000u
  ibs      6.922e-20  1.580e-21
  ibd      363.6376a    8.5166a
  vgs     -680.8279m -680.8279m
  vds     -660.4376m -680.8279m
  vbs        0.         0.     
  vth     -466.4167m -464.8536m
  vdsat   -203.3949m -204.7040m
  vod     -214.4112m -215.9744m
  beta      20.8597m  417.6198u
  gam eff  523.6660m  554.9244m
  gm         3.8704m   78.2244u
  gds       45.4716u  895.9591n
  gmb        1.2825m   26.1677u
  cdtot    176.9747f    3.8255f
  cgtot    533.5508f   11.1466f
  cstot    684.1466f   14.4653f
  cbtot    429.1049f    9.3952f
  cgs      464.3677f    9.6144f
  cgd       47.3003f  981.9411a



 ******  
 **pmos input stage cs output stage amplifier                                   
  ******  ac analysis                      tnom=  25.000 temp=  25.000          
 ******  
x

        freq    voltage m    volt phase 
                    out          out    
    1.00000       2.8418k   -681.6223u  
    1.25893       2.8418k   -858.1116u  
    1.58489       2.8418k     -1.0803m  
    1.99526       2.8418k     -1.3600m  
    2.51189       2.8418k     -1.7122m  
    3.16228       2.8418k     -2.1555m  
    3.98107       2.8418k     -2.7136m  
    5.01187       2.8418k     -3.4162m  
    6.30957       2.8418k     -4.3007m  
    7.94328       2.8418k     -5.4143m  
   10.00000       2.8418k     -6.8162m  
   12.58925       2.8418k     -8.5811m  
   15.84893       2.8418k    -10.8030m  
   19.95262       2.8418k    -13.6002m  
   25.11886       2.8418k    -17.1216m  
   31.62278       2.8418k    -21.5548m  
   39.81072       2.8418k    -27.1359m  
   50.11872       2.8418k    -34.1620m  
   63.09573       2.8418k    -43.0075m  
   79.43282       2.8418k    -54.1432m  
  100.00000       2.8418k    -68.1622m  
  125.89254       2.8418k    -85.8111m  
  158.48932       2.8418k   -108.0297m  
  199.52623       2.8418k   -136.0013m  
  251.18864       2.8418k   -171.2153m  
  316.22777       2.8418k   -215.5469m  
  398.10717       2.8418k   -271.3567m  
  501.18723       2.8417k   -341.6164m  
  630.95734       2.8417k   -430.0666m  
  794.32823       2.8417k   -541.4158m  
    1.00000k      2.8416k   -681.5902m  
    1.25893k      2.8415k   -858.0476m  
    1.58489k      2.8413k     -1.0802   
    1.99526k      2.8410k     -1.3598   
    2.51189k      2.8405k     -1.7116   
    3.16228k      2.8398k     -2.1545   
    3.98107k      2.8386k     -2.7116   
    5.01187k      2.8367k     -3.4122   
    6.30957k      2.8338k     -4.2927   
    7.94328k      2.8292k     -5.3983   
   10.00000k      2.8219k     -6.7844   
   12.58925k      2.8105k     -8.5179   
   15.84893k      2.7926k    -10.6778   
   19.95262k      2.7650k    -13.3534   
   25.11886k      2.7229k    -16.6383   
   31.62278k      2.6599k    -20.6177   
   39.81072k      2.5685k    -25.3451   
   50.11872k      2.4412k    -30.8094   
   63.09573k      2.2731k    -36.9001   
   79.43282k      2.0659k    -43.3918   
  100.00000k      1.8291k    -49.9694   
  125.89254k      1.5785k    -56.2976   
  158.48932k      1.3320k    -62.1003   
  199.52623k      1.1037k    -67.2103   
  251.18864k    902.1954     -71.5715   
  316.22777k    730.3446     -75.2107   
  398.10717k    587.3275     -78.2020   
  501.18723k    470.2411     -80.6383   
  630.95734k    375.4137     -82.6140   
  794.32823k    299.1492     -84.2156   
    1.00000x    238.0879     -85.5189   
    1.25893x    189.3376     -86.5880   
    1.58489x    150.4846     -87.4772   
    1.99526x    119.5525     -88.2318   
    2.51189x     94.9408     -88.8899   
    3.16228x     75.3629     -89.4834   
    3.98107x     59.7895     -90.0385   
    5.01187x     47.3996     -90.5750   
    6.30957x     37.5406     -91.1050   
    7.94328x     29.6957     -91.6300   
   10.00000x     23.4577     -92.1402   
   12.58925x     18.5059     -92.6179   
   15.84893x     14.5866     -93.0479   
   19.95262x     11.4957     -93.4335   
   25.11886x      9.0655     -93.8058   
   31.62278x      7.1573     -94.2205   
   39.81072x      5.6584     -94.7456   
   50.11872x      4.4787     -95.4520   
   63.09573x      3.5481     -96.4106   
   79.43282x      2.8122     -97.6980   
  100.00000x      2.2289     -99.4040   
  125.89254x      1.7653    -101.6408   
  158.48932x      1.3954    -104.5488   
  199.52623x      1.0986    -108.2935   
  251.18864x    858.4068m   -113.0443   
  316.22777x    662.2590m   -118.9260   
  398.10717x    501.1580m   -125.9522   
  501.18723x    369.4748m   -133.9694   
  630.95734x    264.0028m   -142.6517   
  794.32823x    182.4886m   -151.5637   
    1.00000g    122.3048m   -160.2749   
y
x

        freq    voltage m    volt phase 
                     y            y     
    1.00000      47.1052     179.9993   
    1.25893      47.1052     179.9992   
    1.58489      47.1052     179.9990   
    1.99526      47.1052     179.9987   
    2.51189      47.1052     179.9984   
    3.16228      47.1052     179.9979   
    3.98107      47.1052     179.9974   
    5.01187      47.1052     179.9967   
    6.30957      47.1052     179.9959   
    7.94328      47.1052     179.9948   
   10.00000      47.1052     179.9934   
   12.58925      47.1052     179.9917   
   15.84893      47.1052     179.9896   
   19.95262      47.1052     179.9869   
   25.11886      47.1052     179.9835   
   31.62278      47.1052     179.9792   
   39.81072      47.1052     179.9739   
   50.11872      47.1051     179.9671   
   63.09573      47.1051     179.9586   
   79.43282      47.1051     179.9479   
  100.00000      47.1051     179.9344   
  125.89254      47.1051     179.9174   
  158.48932      47.1051     179.8960   
  199.52623      47.1050     179.8691   
  251.18864      47.1049     179.8352   
  316.22777      47.1048     179.7925   
  398.10717      47.1046     179.7388   
  501.18723      47.1043     179.6711   
  630.95734      47.1038     179.5860   
  794.32823      47.1031     179.4788   
    1.00000k     47.1018     179.3438   
    1.25893k     47.0999     179.1739   
    1.58489k     47.0968     178.9601   
    1.99526k     47.0919     178.6909   
    2.51189k     47.0842     178.3521   
    3.16228k     47.0719     177.9258   
    3.98107k     47.0525     177.3895   
    5.01187k     47.0219     176.7151   
    6.30957k     46.9733     175.8675   
    7.94328k     46.8968     174.8034   
   10.00000k     46.7761     173.4695   
   12.58925k     46.5869     171.8018   
   15.84893k     46.2916     169.7246   
   19.95262k     45.8349     167.1532   
   25.11886k     45.1380     163.9995   
   31.62278k     44.0960     160.1852   
   39.81072k     42.5831     155.6656   
   50.11872k     40.4756     150.4629   
   63.09573k     37.6959     144.7015   
   79.43282k     34.2685     138.6241   
  100.00000k     30.3518     132.5677   
  125.89254k     26.2114     126.8950   
  158.48932k     22.1403     121.9160   
  199.52623k     18.3756     117.8401   
  251.18864k     15.0584     114.7750   
  316.22777k     12.2389     112.7560   
  398.10717k      9.9042     111.7823   
  501.18723k      8.0076     111.8426   
  630.95734k      6.4901     112.9273   
  794.32823k      5.2920     115.0234   
    1.00000x      4.3592     118.0951   
    1.25893x      3.6442     122.0498   
    1.58489x      3.1062     126.7024   
    1.99526x      2.7095     131.7568   
    2.51189x      2.4227     136.8301   
    3.16228x      2.2176     141.5205   
    3.98107x      2.0698     145.4908   
    5.01187x      1.9583     148.5247   
    6.30957x      1.8661     150.5445   
    7.94328x      1.7793     151.6062   
   10.00000x      1.6880     151.8916   
   12.58925x      1.5867     151.6994   
   15.84893x      1.4756     151.4120   
   19.95262x      1.3601     151.4156   
   25.11886x      1.2491     151.9858   
   31.62278x      1.1508     153.1919   
   39.81072x      1.0703     154.8802   
   50.11872x      1.0087     156.7473   
   63.09573x    963.8686m    158.4515   
   79.43282x    932.3215m    159.6972   
  100.00000x    910.2585m    160.2628   
  125.89254x    894.1557m    159.9853   
  158.48932x    880.7595m    158.7292   
  199.52623x    866.7294m    156.3648   
  251.18864x    848.1958m    152.7723   
  316.22777x    820.6269m    147.8780   
  398.10717x    779.4881m    141.7140   
  501.18723x    721.8529m    134.4714   
  630.95734x    648.2601m    126.5075   
  794.32823x    563.4274m    118.2861   
    1.00000g    474.9222m    110.2664   
y

          ***** job concluded
1****** HSPICE -- A-2008.03 64-BIT (Feb 26 2008) linux ******                   
 ******  
 **pmos input stage cs output stage amplifier                                   
  ******  job statistics summary           tnom=  25.000 temp=  25.000          
 ******  

           total memory used             202 kbytes

  # nodes =      27 # elements=      16
  # diodes=       0 # bjts    =       0 # jfets   =       0 # mosfets =       8
  # va device =       0

    analysis           time    # points   tot. iter  conv.iter

    op point           0.00           1          15
    ac analysis        0.00          91          91
    readin             0.08
    errchk             0.01
    setup              0.00
    output             0.00
           total cpu time          0.09 seconds
           total elapsed time         1 seconds
               job started at  01:23:56 09/23/2014
